T0A30 3455:494 SEGGER J-Link V6.32g Log File (0001ms, 8695ms total)
T0A30 3455:494 DLL Compiled: Jun 15 2018 17:26:15 (0001ms, 8695ms total)
T0A30 3455:494 Logging started @ 2019-04-29 00:15 (0001ms, 8695ms total)
T0A30 3455:507 JLINK_ExecCommand("Device = AT91SAM3S4B", ...). Device "ATSAM3S4B" selected.  returns 0x00 (0002ms, 8697ms total)
T0A30 3455:544 JLINK_TIF_Select(JLINKARM_TIF_JTAG)  returns 0x00 (0001ms, 8698ms total)
T0A30 3455:545 JLINK_ConfigJTAG(IRPre = 0, DRPre = 0) (0000ms, 8698ms total)
T0A30 3455:545 JLINK_SetSpeed(4000) (0000ms, 8698ms total)
T0A30 3455:545 JLINK_ResetPullsRESET(OFF) (0000ms, 8698ms total)
T0A30 3455:545 JLINK_Connect() >0x2F8 JTAG>TotalIRLen = 4, IRPrint = 0x01 >0x30 JTAG> >0x30 JTAG>JTAG chain detection found 1 devices: #0 Id: 0x4BA00477, IRLen: 04, CoreSight JTAG-DPScanning AP map to find all available APs >0x78 JTAG> >0x48 JTAG> >0x40 JTAG> >0x40 JTAG> >0x48 JTAG> >0x40 JTAG>AP[1]: Stopped AP scan as end of AP map has been reachedAP[0]: AHB-AP (IDR: 0x24770011)Iterating through AP map to find AHB-AP to use >0x78 JTAG> >0x48 JTAG> >0x48 JTAG> >0x78 JTAG> >0x40 JTAG> >0x30 JTAG>
 >0x40 JTAG> >0x40 JTAG>AP[0]: Core foundAP[0]: AHB-AP ROM base: 0xE00FF000 >0x40 JTAG> >0x40 JTAG> >0x30 JTAG> >0x40 JTAG> >0x40 JTAG>CPUID register: 0x412FC230. Implementer code: 0x41 (ARM)Found Cortex-M3 r2p0, Little endian. -- CPU_ReadMem(4 bytes @ 0xE000EDF0) -- CPU_WriteMem(4 bytes @ 0xE000EDF0) -- CPU_ReadMem(4 bytes @ 0xE0002000)FPUnit: 6 code (BP) slots and 2 literal slots -- CPU_ReadMem(4 bytes @ 0xE000EDFC) -- CPU_WriteMem(4 bytes @ 0xE000EDFC) -- CPU_ReadMem(4 bytes @ 0xE0001000)
 -- CPU_WriteMem(4 bytes @ 0xE0001000) -- CPU_ReadMem(4 bytes @ 0xE000ED88) -- CPU_WriteMem(4 bytes @ 0xE000ED88) -- CPU_ReadMem(4 bytes @ 0xE000ED88) -- CPU_WriteMem(4 bytes @ 0xE000ED88)CoreSight components:ROMTbl[0] @ E00FF000 -- CPU_ReadMem(16 bytes @ 0xE00FF000) -- CPU_ReadMem(16 bytes @ 0xE000EFF0) -- CPU_ReadMem(16 bytes @ 0xE000EFE0)ROMTbl[0][0]: E000E000, CID: B105E00D, PID: 002BB000 SCS -- CPU_ReadMem(16 bytes @ 0xE0001FF0) -- CPU_ReadMem(16 bytes @ 0xE0001FE0)
ROMTbl[0][1]: E0001000, CID: B105E00D, PID: 002BB002 DWT -- CPU_ReadMem(16 bytes @ 0xE0002FF0) -- CPU_ReadMem(16 bytes @ 0xE0002FE0)ROMTbl[0][2]: E0002000, CID: B105E00D, PID: 002BB003 FPB -- CPU_ReadMem(16 bytes @ 0xE0000FF0) -- CPU_ReadMem(16 bytes @ 0xE0000FE0)ROMTbl[0][3]: E0000000, CID: B105E00D, PID: 002BB001 ITM -- CPU_ReadMem(16 bytes @ 0xE00FF010) -- CPU_ReadMem(16 bytes @ 0xE0040FF0) -- CPU_ReadMem(16 bytes @ 0xE0040FE0)ROMTbl[0][4]: E0040000, CID: B105900D, PID: 002BB923 TPIU-Lite
  returns 0x00 (0019ms, 8717ms total)
T0A30 3455:564 JLINK_Halt()  returns 0x00 (0003ms, 8720ms total)
T0A30 3455:567 JLINK_BeginDownload(Flags = 0x00) (0000ms, 8720ms total)
T0A30 3455:567 JLINK_WriteMem(0x400E0A04, 0x0004 Bytes, ...) - Data: 0B 01 00 5A -- CPU_WriteMem(4 bytes @ 0x400E0A04)  returns 0x04 (0001ms, 8721ms total)
T0A30 3455:568 JLINK_EndDownload()  returns 0x00 (0000ms, 8721ms total)
T0A30 3455:568 JLINK_ReadMemHW(0x400E0A08, 0x0004 Bytes, ...) -- CPU_ReadMem(4 bytes @ 0x400E0A08) - Data: 01 00 00 00  returns 0x00 (0000ms, 8721ms total)
T0A30 3455:568 JLINK_SetResetType(JLINKARM_CM3_RESET_TYPE_NORMAL)  returns JLINKARM_CM3_RESET_TYPE_NORMAL (0000ms, 8721ms total)
T0A30 3455:568 JLINK_Reset() -- CPU_ReadMem(16 bytes @ 0x20000000) -- CPU_WriteMem(16 bytes @ 0x20000000) -- CPU_ReadMem(4 bytes @ 0xE000EDFC) -- CPU_WriteMem(4 bytes @ 0xE000EDFC) -- CPU_ReadMem(4 bytes @ 0xE0001000) -- CPU_WriteMem(4 bytes @ 0xE000ED0C) -- CPU_ReadMem(4 bytes @ 0xE000EDF0) -- CPU_ReadMem(4 bytes @ 0xE000EDF0) -- CPU_WriteMem(4 bytes @ 0xE000EDFC) -- CPU_WriteMem(16 bytes @ 0x20000000) -- CPU_WriteMem(4 bytes @ 0xE0002000) -- CPU_ReadMem(4 bytes @ 0xE000EDFC)
 -- CPU_ReadMem(4 bytes @ 0xE0001000) (0024ms, 8745ms total)
T0A30 3455:593 JLINK_JTAG_GetDeviceID(DeviceIndex = 0)  returns 0x4BA00477 (0000ms, 8745ms total)
T0A30 3455:593 JLINK_ReadMemU32(0x400E0740, 0x0001 Items, ...) -- CPU_ReadMem(4 bytes @ 0x400E0740) - Data: 60 09 90 28  returns 0x01 (0000ms, 8745ms total)
T0A30 3455:593 JLINK_ReadMemU32(0x400E0744, 0x0001 Items, ...) -- CPU_ReadMem(4 bytes @ 0x400E0744) - Data: 00 00 00 00  returns 0x01 (0001ms, 8746ms total)
T0A30 3455:594 JLINK_BeginDownload(Flags = 0x00) (0000ms, 8746ms total)
T0A30 3455:594 JLINK_WriteMem(0x400E0A04, 0x0004 Bytes, ...) - Data: 05 00 00 5A -- CPU_WriteMem(4 bytes @ 0x400E0A04)  returns 0x04 (0000ms, 8746ms total)
T0A30 3455:594 JLINK_EndDownload()  returns 0x00 (0000ms, 8746ms total)
T0A30 3455:594 JLINK_ReadMemHW(0x400E0A08, 0x0004 Bytes, ...) -- CPU_ReadMem(4 bytes @ 0x400E0A08) - Data: 00 00 00 00  returns 0x00 (0001ms, 8747ms total)
T0A30 3455:597 JLINK_ReadMemHW(0x400E0A08, 0x0004 Bytes, ...) -- CPU_ReadMem(4 bytes @ 0x400E0A08) - Data: 00 00 00 00  returns 0x00 (0000ms, 8747ms total)
T0A30 3455:602 JLINK_ReadMemHW(0x400E0A08, 0x0004 Bytes, ...) -- CPU_ReadMem(4 bytes @ 0x400E0A08) - Data: 00 00 00 00  returns 0x00 (0000ms, 8747ms total)
T08D4 3455:603 JLINK_IsHalted()  returns TRUE (0000ms, 8747ms total)
T08D4 3455:603 JLINK_GetMOEs(...) -- CPU_ReadMem(4 bytes @ 0xE000ED30)  returns 0x01 (0000ms, 8747ms total)
T08D4 3455:603 JLINK_ReadReg(R15 (PC))  returns 0x0040013C (0000ms, 8747ms total)
T0A30 3455:619 JLINK_ReadMemHW(0x400E0A08, 0x0004 Bytes, ...) -- CPU_ReadMem(4 bytes @ 0x400E0A08) - Data: 01 00 00 00  returns 0x00 (0000ms, 8747ms total)
T08D4 3455:805 JLINK_IsHalted()  returns TRUE (0000ms, 8747ms total)
T0A30 3455:806 JLINK_ResetPullsRESET(ON) (0001ms, 8748ms total)
T0A30 3455:807 JLINK_ResetNoHalt() >0x2F8 JTAG>TotalIRLen = 4, IRPrint = 0x01 >0x30 JTAG> >0x30 JTAG>JTAG chain detection found 1 devices: #0 Id: 0x4BA00477, IRLen: 04, CoreSight JTAG-DPAP map detection skipped. Manually configured AP map found.AP[0]: AHB-AP (IDR: Not set) >0xB0 JTAG> >0x48 JTAG> >0x48 JTAG> >0x78 JTAG> >0x40 JTAG> >0x30 JTAG> >0x40 JTAG> >0x40 JTAG>AP[0]: Core foundAP[0]: AHB-AP ROM base: 0xE00FF000 >0x40 JTAG> >0x40 JTAG> >0x30 JTAG> >0x40 JTAG> >0x40 JTAG>
CPUID register: 0x412FC230. Implementer code: 0x41 (ARM)Found Cortex-M3 r2p0, Little endian. -- CPU_ReadMem(4 bytes @ 0xE000EDF0) -- CPU_ReadMem(4 bytes @ 0xE0002000)FPUnit: 6 code (BP) slots and 2 literal slots -- CPU_ReadMem(4 bytes @ 0xE000EDFC) -- CPU_ReadMem(4 bytes @ 0xE0001000) -- CPU_ReadMem(4 bytes @ 0xE000ED88) -- CPU_WriteMem(4 bytes @ 0xE000ED88) -- CPU_ReadMem(4 bytes @ 0xE000ED88) -- CPU_WriteMem(4 bytes @ 0xE000ED88)CoreSight components:ROMTbl[0] @ E00FF000
 -- CPU_ReadMem(16 bytes @ 0xE00FF000) -- CPU_ReadMem(16 bytes @ 0xE000EFF0) -- CPU_ReadMem(16 bytes @ 0xE000EFE0)ROMTbl[0][0]: E000E000, CID: B105E00D, PID: 002BB000 SCS -- CPU_WriteMem(4 bytes @ 0xE0001000) -- CPU_ReadMem(16 bytes @ 0xE0001FF0) -- CPU_ReadMem(16 bytes @ 0xE0001FE0)ROMTbl[0][1]: E0001000, CID: B105E00D, PID: 002BB002 DWT -- CPU_ReadMem(16 bytes @ 0xE0002FF0) -- CPU_ReadMem(16 bytes @ 0xE0002FE0)ROMTbl[0][2]: E0002000, CID: B105E00D, PID: 002BB003 FPB
 -- CPU_ReadMem(16 bytes @ 0xE0000FF0) -- CPU_ReadMem(16 bytes @ 0xE0000FE0)ROMTbl[0][3]: E0000000, CID: B105E00D, PID: 002BB001 ITM -- CPU_ReadMem(16 bytes @ 0xE00FF010) -- CPU_ReadMem(16 bytes @ 0xE0040FF0) -- CPU_ReadMem(16 bytes @ 0xE0040FE0)ROMTbl[0][4]: E0040000, CID: B105900D, PID: 002BB923 TPIU-Lite
                JLINK_Reset() -- CPU_ReadMem(16 bytes @ 0x20000000) -- CPU_WriteMem(16 bytes @ 0x20000000) -- CPU_ReadMem(4 bytes @ 0xE000EDFC) -- CPU_WriteMem(4 bytes @ 0xE000EDFC) -- CPU_ReadMem(4 bytes @ 0xE0001000) -- CPU_WriteMem(4 bytes @ 0xE0001004) -- CPU_WriteMem(4 bytes @ 0xE000ED0C) -- CPU_ReadMem(4 bytes @ 0xE000EDF0) -- CPU_ReadMem(4 bytes @ 0xE000EDF0) -- CPU_WriteMem(4 bytes @ 0xE000EDFC) -- CPU_WriteMem(16 bytes @ 0x20000000) -- CPU_WriteMem(4 bytes @ 0xE0002000)
 -- CPU_ReadMem(4 bytes @ 0xE000EDFC) -- CPU_ReadMem(4 bytes @ 0xE0001000) (0026ms, 0026ms total)
                JLINK_Go() -- CPU_ReadMem(4 bytes @ 0xE0001000) -- CPU_WriteMem(4 bytes @ 0xE0001004) (0002ms, 0028ms total)
               (0050ms, 8798ms total)
T0A30 3455:857 JLINK_TIF_Select(JLINKARM_TIF_JTAG)  returns 0x00 (0001ms, 8799ms total)
T0A30 3455:858 JLINK_ConfigJTAG(IRPre = 0, DRPre = 0) (0000ms, 8799ms total)
T0A30 3455:858 JLINK_SetSpeed(4000) (0000ms, 8799ms total)
T0A30 3455:858 JLINK_ResetPullsRESET(OFF) (0000ms, 8799ms total)
T0A30 3455:858 JLINK_Connect() >0x2F8 JTAG>TotalIRLen = 4, IRPrint = 0x01 >0x30 JTAG> >0x30 JTAG>JTAG chain detection found 1 devices: #0 Id: 0x4BA00477, IRLen: 04, CoreSight JTAG-DPAP map detection skipped. Manually configured AP map found.AP[0]: AHB-AP (IDR: Not set) >0xB0 JTAG> >0x48 JTAG> >0x48 JTAG> >0x78 JTAG> >0x40 JTAG> >0x30 JTAG> >0x40 JTAG> >0x40 JTAG>AP[0]: Core foundAP[0]: AHB-AP ROM base: 0xE00FF000 >0x40 JTAG> >0x40 JTAG> >0x30 JTAG> >0x40 JTAG> >0x40 JTAG>
CPUID register: 0x412FC230. Implementer code: 0x41 (ARM)Found Cortex-M3 r2p0, Little endian. -- CPU_ReadMem(4 bytes @ 0xE000EDF0) -- CPU_ReadMem(4 bytes @ 0xE0002000)FPUnit: 6 code (BP) slots and 2 literal slots -- CPU_ReadMem(4 bytes @ 0xE000EDFC) -- CPU_ReadMem(4 bytes @ 0xE0001000) -- CPU_WriteMem(4 bytes @ 0xE0001000) -- CPU_ReadMem(4 bytes @ 0xE000ED88) -- CPU_WriteMem(4 bytes @ 0xE000ED88) -- CPU_ReadMem(4 bytes @ 0xE000ED88) -- CPU_WriteMem(4 bytes @ 0xE000ED88)CoreSight components:
ROMTbl[0] @ E00FF000 -- CPU_ReadMem(16 bytes @ 0xE00FF000) -- CPU_ReadMem(16 bytes @ 0xE000EFF0) -- CPU_ReadMem(16 bytes @ 0xE000EFE0)ROMTbl[0][0]: E000E000, CID: B105E00D, PID: 002BB000 SCS -- CPU_ReadMem(16 bytes @ 0xE0001FF0) -- CPU_ReadMem(16 bytes @ 0xE0001FE0)ROMTbl[0][1]: E0001000, CID: B105E00D, PID: 002BB002 DWT -- CPU_ReadMem(16 bytes @ 0xE0002FF0) -- CPU_ReadMem(16 bytes @ 0xE0002FE0)ROMTbl[0][2]: E0002000, CID: B105E00D, PID: 002BB003 FPB -- CPU_ReadMem(16 bytes @ 0xE0000FF0)
 -- CPU_ReadMem(16 bytes @ 0xE0000FE0)ROMTbl[0][3]: E0000000, CID: B105E00D, PID: 002BB001 ITM -- CPU_ReadMem(16 bytes @ 0xE00FF010) -- CPU_ReadMem(16 bytes @ 0xE0040FF0) -- CPU_ReadMem(16 bytes @ 0xE0040FE0)ROMTbl[0][4]: E0040000, CID: B105900D, PID: 002BB923 TPIU-Lite  returns 0x00 (0018ms, 8817ms total)
T0A30 3455:876 JLINK_Halt()  returns 0x00 (0003ms, 8820ms total)
T0A30 3455:879 JLINK_BeginDownload(Flags = 0x00) (0000ms, 8820ms total)
T0A30 3455:879 JLINK_WriteMem(0x400E0A04, 0x0004 Bytes, ...) - Data: 0B 01 00 5A -- CPU_WriteMem(4 bytes @ 0x400E0A04)  returns 0x04 (0001ms, 8821ms total)
T0A30 3455:880 JLINK_EndDownload()  returns 0x00 (0000ms, 8821ms total)
T0A30 3455:880 JLINK_ReadMemHW(0x400E0A08, 0x0004 Bytes, ...) -- CPU_ReadMem(4 bytes @ 0x400E0A08) - Data: 01 00 00 00  returns 0x00 (0001ms, 8822ms total)
T0A30 3455:881 JLINK_SetResetType(JLINKARM_CM3_RESET_TYPE_NORMAL)  returns JLINKARM_CM3_RESET_TYPE_NORMAL (0000ms, 8822ms total)
T0A30 3455:881 JLINK_Reset() -- CPU_ReadMem(16 bytes @ 0x20000000) -- CPU_WriteMem(16 bytes @ 0x20000000) -- CPU_ReadMem(4 bytes @ 0xE000EDFC) -- CPU_WriteMem(4 bytes @ 0xE000EDFC) -- CPU_ReadMem(4 bytes @ 0xE0001000) -- CPU_WriteMem(4 bytes @ 0xE000ED0C) -- CPU_ReadMem(4 bytes @ 0xE000EDF0) -- CPU_ReadMem(4 bytes @ 0xE000EDF0) -- CPU_WriteMem(4 bytes @ 0xE000EDFC) -- CPU_WriteMem(16 bytes @ 0x20000000) -- CPU_WriteMem(4 bytes @ 0xE0002000) -- CPU_ReadMem(4 bytes @ 0xE000EDFC)
 -- CPU_ReadMem(4 bytes @ 0xE0001000) (0023ms, 8845ms total)
T0A30 3455:907 JLINK_JTAG_GetDeviceID(DeviceIndex = 0)  returns 0x4BA00477 (0000ms, 8845ms total)
T0A30 3455:907 JLINK_ReadMemU32(0x400E0740, 0x0001 Items, ...) -- CPU_ReadMem(4 bytes @ 0x400E0740) - Data: 60 09 90 28  returns 0x01 (0000ms, 8845ms total)
T0A30 3455:907 JLINK_ReadMemU32(0x400E0744, 0x0001 Items, ...) -- CPU_ReadMem(4 bytes @ 0x400E0744) - Data: 00 00 00 00  returns 0x01 (0001ms, 8846ms total)
T1340 3455:916 JLINK_IsHalted()  returns TRUE (0000ms, 8846ms total)
T1340 3455:916 JLINK_GetMOEs(...) -- CPU_ReadMem(4 bytes @ 0xE000ED30)  returns 0x01 (0000ms, 8846ms total)
T0A30 3455:916 JLINK_BeginDownload(Flags = 0x00) (0000ms, 8846ms total)
T1340 3455:916 JLINK_ReadReg(R15 (PC))  returns 0xFFFFFFFE (0000ms, 8846ms total)
T0A30 3455:916 JLINK_WriteMem(0x00400000, 0x1748 Bytes, ...) - Data: 50 04 00 20 3D 01 40 00 39 01 40 00 39 01 40 00 ...  returns 0x1748 (0002ms, 8848ms total)
T0A30 3455:918 JLINK_WriteMem(0x00401748, 0x0018 Bytes, ...) - Data: 60 16 40 00 38 16 40 00 88 15 40 00 6C 15 40 00 ...  returns 0x18 (0000ms, 8848ms total)
T0A30 3455:921 JLINK_EndDownload() -- CPU_ReadMem(4 bytes @ 0xE000ED90) -- CPU_ReadMem(4 bytes @ 0xE000ED94) -- -------------------------------------- -- Start of determining dirty areas in flash cache -- End of determining dirty areas -- Start of preparing flash programming -- Calculating RAM usage -- RAM usage = 2692 Bytes -- Preserving CPU registers -- Preparing memory -- Preparing target -- Downloading RAMCode -- Checking target RAM -- Preparing RAMCode -- End of preparing flash programming
 -- CPU speed could not be measured. -- Start of comparing flash -- CRC check was estimated as fastest method -- Comparing range 0x400000 - 0x4017FF (24 Sectors, 6 KB), using multi-block CRC calculation -- CRC does not match for sectors 0-23 -- End of comparing flash -- Start of erasing sectors -- End of erasing sectors -- Start of flash programming -- Programming range 0x00400000 - 0x004017FF (024 Sectors, 6 KB) -- End of flash programming -- 0x400000 - 0x4017FF (024 Sectors, 6 KB)
 -- Start of verifying flash -- Use CRC as verify method -- Checksum is not supported by this flash bank. Switched to CRC method. -- End of verifying flash -- Start of restoring -- Restoring RAMCode -- Restore target -- Restore memory -- Restoring CPU registers -- End of restoring -- Bank 0 @ 0x00400000: 1 range affected (6144 bytes) -- Total time needed: 0.139s (Prepare: 0.040s, Compare: 0.013s, Erase: 0.000s, Program: 0.075s, Verify: 0.005s, Restore: 0.004s)  returns 0x1800 (0143ms, 8991ms total)
T0A30 3456:064 JLINK_SetResetType(JLINKARM_CM3_RESET_TYPE_NORMAL)  returns JLINKARM_CM3_RESET_TYPE_NORMAL (0000ms, 8991ms total)
T0A30 3456:064 JLINK_Reset() -- CPU_ReadMem(16 bytes @ 0x20000000) -- CPU_WriteMem(16 bytes @ 0x20000000) -- CPU_ReadMem(4 bytes @ 0xE000EDFC) -- CPU_WriteMem(4 bytes @ 0xE000EDFC) -- CPU_ReadMem(4 bytes @ 0xE0001000) -- CPU_WriteMem(4 bytes @ 0xE000ED0C) -- CPU_ReadMem(4 bytes @ 0xE000EDF0) -- CPU_ReadMem(4 bytes @ 0xE000EDF0) -- CPU_WriteMem(4 bytes @ 0xE000EDFC) -- CPU_WriteMem(16 bytes @ 0x20000000) -- CPU_WriteMem(4 bytes @ 0xE0002000) -- CPU_ReadMem(4 bytes @ 0xE000EDFC)
 -- CPU_ReadMem(4 bytes @ 0xE0001000) (0024ms, 9015ms total)
T1340 3456:117 JLINK_IsHalted()  returns TRUE (0000ms, 9015ms total)
T2A60 3456:252 JLINK_Halt()  returns 0x00 (0000ms, 9015ms total)
T2A60 3456:252 JLINK_ReadReg(R15 (PC))  returns 0x0040013C (0000ms, 9015ms total)
T2A60 3456:252 JLINK_ReadReg(R13 (SP))  returns 0x20000450 (0001ms, 9016ms total)
T2A60 3456:263 JLINK_ReadMemHW(0x0040013C, 0x0004 Bytes, ...) -- CPU_ReadMem(4 bytes @ 0x0040013C) - Data: 08 B5 18 4B  returns 0x00 (0000ms, 9016ms total)
T2A60 3456:264 JLINK_ReadReg(R0)  returns 0x400E1400 (0000ms, 9017ms total)
T2A60 3456:264 JLINK_ReadReg(R1)  returns 0x00000000 (0000ms, 9017ms total)
T2A60 3456:264 JLINK_ReadReg(R2)  returns 0xA5000004 (0000ms, 9017ms total)
T2A60 3456:264 JLINK_ReadReg(R3)  returns 0x40001A1A (0000ms, 9017ms total)
T2A60 3456:264 JLINK_ReadReg(R4)  returns 0x400E0600 (0000ms, 9017ms total)
T2A60 3456:264 JLINK_ReadReg(R5)  returns 0x00000000 (0000ms, 9017ms total)
T2A60 3456:264 JLINK_ReadReg(R6)  returns 0x00400791 (0000ms, 9017ms total)
T2A60 3456:264 JLINK_ReadReg(R7)  returns 0x00400369 (0000ms, 9017ms total)
T2A60 3456:264 JLINK_ReadReg(R8)  returns 0x00000000 (0000ms, 9017ms total)
T2A60 3456:264 JLINK_ReadReg(R9)  returns 0x00401320 (0001ms, 9018ms total)
T2A60 3456:265 JLINK_ReadReg(R10)  returns 0x00000001 (0000ms, 9018ms total)
T2A60 3456:265 JLINK_ReadReg(R11)  returns 0x02001000 (0000ms, 9018ms total)
T2A60 3456:265 JLINK_ReadReg(R12)  returns 0x000003F1 (0000ms, 9018ms total)
T2A60 3456:265 JLINK_ReadReg(R13 (SP))  returns 0x20000450 (0000ms, 9018ms total)
T2A60 3456:265 JLINK_ReadReg(R14)  returns 0xFFFFFFFF (0000ms, 9018ms total)
T2A60 3456:265 JLINK_ReadReg(R15 (PC))  returns 0x0040013C (0000ms, 9018ms total)
T2A60 3456:265 JLINK_ReadReg(XPSR)  returns 0x01000000 (0000ms, 9018ms total)
T2A60 3456:265 JLINK_ReadReg(MSP)  returns 0x20000450 (0000ms, 9018ms total)
T2A60 3456:265 JLINK_ReadReg(PSP)  returns 0x06040860 (0000ms, 9018ms total)
T2A60 3456:265 JLINK_ReadReg(PRIMASK)  returns 0x00000000 (0000ms, 9018ms total)
T2A60 3456:265 JLINK_ReadReg(BASEPRI)  returns 0x00000000 (0000ms, 9018ms total)
T2A60 3456:265 JLINK_ReadReg(FAULTMASK)  returns 0x00000000 (0000ms, 9018ms total)
T2A60 3456:265 JLINK_ReadReg(CONTROL)  returns 0x00000000 (0000ms, 9018ms total)
T2A60 3456:266 JLINK_ReadMemHW(0x0040013C, 0x0002 Bytes, ...) -- CPU_ReadMem(2 bytes @ 0x0040013C) - Data: 08 B5  returns 0x00 (0000ms, 9018ms total)
T2A60 3456:292 JLINK_ReadReg(R0)  returns 0x400E1400 (0000ms, 9018ms total)
T2A60 3456:292 JLINK_ReadReg(R1)  returns 0x00000000 (0000ms, 9018ms total)
T2A60 3456:292 JLINK_ReadReg(R2)  returns 0xA5000004 (0000ms, 9018ms total)
T2A60 3456:292 JLINK_ReadReg(R3)  returns 0x40001A1A (0000ms, 9018ms total)
T2A60 3456:292 JLINK_ReadReg(R4)  returns 0x400E0600 (0000ms, 9018ms total)
T2A60 3456:292 JLINK_ReadReg(R5)  returns 0x00000000 (0000ms, 9018ms total)
T2A60 3456:292 JLINK_ReadReg(R6)  returns 0x00400791 (0000ms, 9018ms total)
T2A60 3456:292 JLINK_ReadReg(R7)  returns 0x00400369 (0000ms, 9018ms total)
T2A60 3456:292 JLINK_ReadReg(R8)  returns 0x00000000 (0000ms, 9018ms total)
T2A60 3456:292 JLINK_ReadReg(R9)  returns 0x00401320 (0000ms, 9018ms total)
T2A60 3456:292 JLINK_ReadReg(R10)  returns 0x00000001 (0000ms, 9018ms total)
T2A60 3456:292 JLINK_ReadReg(R11)  returns 0x02001000 (0000ms, 9018ms total)
T2A60 3456:292 JLINK_ReadReg(R12)  returns 0x000003F1 (0000ms, 9018ms total)
T2A60 3456:292 JLINK_ReadReg(R13 (SP))  returns 0x20000450 (0000ms, 9018ms total)
T2A60 3456:293 JLINK_ReadReg(R14)  returns 0xFFFFFFFF (0000ms, 9019ms total)
T2A60 3456:293 JLINK_ReadReg(R15 (PC))  returns 0x0040013C (0000ms, 9019ms total)
T2A60 3456:293 JLINK_ReadReg(XPSR)  returns 0x01000000 (0000ms, 9019ms total)
T2A60 3456:293 JLINK_ReadReg(MSP)  returns 0x20000450 (0000ms, 9019ms total)
T2A60 3456:293 JLINK_ReadReg(PSP)  returns 0x06040860 (0000ms, 9019ms total)
T2A60 3456:293 JLINK_ReadReg(PRIMASK)  returns 0x00000000 (0000ms, 9019ms total)
T2A60 3456:293 JLINK_ReadReg(BASEPRI)  returns 0x00000000 (0000ms, 9019ms total)
T2A60 3456:293 JLINK_ReadReg(FAULTMASK)  returns 0x00000000 (0000ms, 9019ms total)
T2A60 3456:293 JLINK_ReadReg(CONTROL)  returns 0x00000000 (0000ms, 9019ms total)
T2A60 3456:305 JLINK_ReadMemHW(0x0040013C, 0x0004 Bytes, ...) -- CPU_ReadMem(4 bytes @ 0x0040013C) - Data: 08 B5 18 4B  returns 0x00 (0000ms, 9019ms total)
T1340 3456:317 JLINK_IsHalted()  returns TRUE (0000ms, 9019ms total)
T2A60 3456:351 JLINK_SetResetType(JLINKARM_CM3_RESET_TYPE_NORMAL)  returns JLINKARM_CM3_RESET_TYPE_NORMAL (0000ms, 9019ms total)
T2A60 3456:351 JLINK_Reset() -- CPU_ReadMem(16 bytes @ 0x20000000) -- CPU_WriteMem(16 bytes @ 0x20000000) -- CPU_ReadMem(4 bytes @ 0xE000EDFC) -- CPU_WriteMem(4 bytes @ 0xE000EDFC) -- CPU_ReadMem(4 bytes @ 0xE0001000) -- CPU_WriteMem(4 bytes @ 0xE0001004) -- CPU_WriteMem(4 bytes @ 0xE000ED0C) -- CPU_ReadMem(4 bytes @ 0xE000EDF0) -- CPU_ReadMem(4 bytes @ 0xE000EDF0) -- CPU_WriteMem(4 bytes @ 0xE000EDFC) -- CPU_WriteMem(16 bytes @ 0x20000000) -- CPU_WriteMem(4 bytes @ 0xE0002000)
 -- CPU_ReadMem(4 bytes @ 0xE000EDFC) -- CPU_ReadMem(4 bytes @ 0xE0001000) (0025ms, 9044ms total)
T1340 3456:376 JLINK_IsHalted()  returns TRUE (0000ms, 9044ms total)
T1340 3456:376 JLINK_GetMOEs(...) -- CPU_ReadMem(4 bytes @ 0xE000ED30)  returns 0x01 (0001ms, 9045ms total)
T1340 3456:377 JLINK_ReadReg(R15 (PC))  returns 0x0040013C (0000ms, 9045ms total)
T2A60 3456:387 JLINK_ReadReg(R15 (PC))  returns 0x0040013C (0000ms, 9045ms total)
T2A60 3456:387 JLINK_ReadReg(R13 (SP))  returns 0x20000450 (0000ms, 9045ms total)
T2A60 3456:388 JLINK_ReadMemHW(0x0040013C, 0x0004 Bytes, ...) -- CPU_ReadMem(4 bytes @ 0x0040013C) - Data: 08 B5 18 4B  returns 0x00 (0000ms, 9045ms total)
T2A60 3456:410 JLINK_ReadReg(R0)  returns 0x400E1400 (0000ms, 9045ms total)
T2A60 3456:410 JLINK_ReadReg(R1)  returns 0x00000000 (0000ms, 9045ms total)
T2A60 3456:410 JLINK_ReadReg(R2)  returns 0xA5000004 (0000ms, 9045ms total)
T2A60 3456:410 JLINK_ReadReg(R3)  returns 0x40001A1A (0000ms, 9045ms total)
T2A60 3456:410 JLINK_ReadReg(R4)  returns 0x400E0600 (0000ms, 9045ms total)
T2A60 3456:410 JLINK_ReadReg(R5)  returns 0x00000000 (0000ms, 9045ms total)
T2A60 3456:410 JLINK_ReadReg(R6)  returns 0x00400791 (0000ms, 9045ms total)
T2A60 3456:410 JLINK_ReadReg(R7)  returns 0x00400369 (0000ms, 9045ms total)
T2A60 3456:410 JLINK_ReadReg(R8)  returns 0x00000000 (0000ms, 9045ms total)
T2A60 3456:410 JLINK_ReadReg(R9)  returns 0x00401320 (0001ms, 9046ms total)
T2A60 3456:411 JLINK_ReadReg(R10)  returns 0x00000001 (0000ms, 9046ms total)
T2A60 3456:411 JLINK_ReadReg(R11)  returns 0x02001000 (0000ms, 9046ms total)
T2A60 3456:411 JLINK_ReadReg(R12)  returns 0x000003F1 (0000ms, 9046ms total)
T2A60 3456:411 JLINK_ReadReg(R13 (SP))  returns 0x20000450 (0000ms, 9046ms total)
T2A60 3456:411 JLINK_ReadReg(R14)  returns 0xFFFFFFFF (0000ms, 9046ms total)
T2A60 3456:411 JLINK_ReadReg(R15 (PC))  returns 0x0040013C (0000ms, 9046ms total)
T2A60 3456:411 JLINK_ReadReg(XPSR)  returns 0x01000000 (0000ms, 9046ms total)
T2A60 3456:411 JLINK_ReadReg(MSP)  returns 0x20000450 (0000ms, 9046ms total)
T2A60 3456:411 JLINK_ReadReg(PSP)  returns 0x06040860 (0000ms, 9046ms total)
T2A60 3456:411 JLINK_ReadReg(PRIMASK)  returns 0x00000000 (0000ms, 9046ms total)
T2A60 3456:411 JLINK_ReadReg(BASEPRI)  returns 0x00000000 (0000ms, 9046ms total)
T2A60 3456:411 JLINK_ReadReg(FAULTMASK)  returns 0x00000000 (0001ms, 9047ms total)
T2A60 3456:412 JLINK_ReadReg(CONTROL)  returns 0x00000000 (0000ms, 9047ms total)
T2A60 3456:449 JLINK_ReadMemHW(0x00400910, 0x0001 Bytes, ...) -- CPU_ReadMem(1 bytes @ 0x00400910) - Data: 2D  returns 0x00 (0001ms, 9048ms total)
T2A60 3456:508 JLINK_ReadReg(R15 (PC))  returns 0x0040013C (0000ms, 9048ms total)
T2A60 3456:508 JLINK_GetNumBPUnits(Type = 0xFFFFFF02)  returns 0x06 (0000ms, 9048ms total)
T2A60 3456:508 JLINK_SetBPEx(Addr = 0x00400910, Type = 0xFFFFFFF2)  returns 0x00000001 (0000ms, 9048ms total)
T2A60 3456:508 JLINK_GetBPInfo(BPHandle = 1)  returns 0x00 (0001ms, 9049ms total)
T2A60 3456:509 JLINK_Go() -- CPU_ReadMem(4 bytes @ 0xE0001000) -- CPU_WriteMem(4 bytes @ 0xE000ED30) -- CPU_WriteMem(4 bytes @ 0xE0002008) -- CPU_WriteMem(4 bytes @ 0xE000200C) -- CPU_WriteMem(4 bytes @ 0xE0002010) -- CPU_WriteMem(4 bytes @ 0xE0002014) -- CPU_WriteMem(4 bytes @ 0xE0002018) -- CPU_WriteMem(4 bytes @ 0xE000201C) -- CPU_WriteMem(4 bytes @ 0xE0001004) (0005ms, 9054ms total)
T1340 3456:514 JLINK_IsHalted()  returns TRUE (0003ms, 9057ms total)
T1340 3456:517 JLINK_GetMOEs(...) -- CPU_ReadMem(4 bytes @ 0xE000ED30)  returns 0x01 (0001ms, 9055ms total)
T1340 3456:518 JLINK_ReadReg(R15 (PC))  returns 0x00400910 (0000ms, 9055ms total)
T2A60 3456:525 JLINK_ReadReg(R15 (PC))  returns 0x00400910 (0000ms, 9055ms total)
T2A60 3456:525 JLINK_ReadReg(R13 (SP))  returns 0x20000448 (0000ms, 9055ms total)
T2A60 3456:526 JLINK_ReadMemHW(0x00400910, 0x0004 Bytes, ...) -- CPU_ReadMem(4 bytes @ 0x00400910) - Data: 2D E9 F0 47  returns 0x00 (0001ms, 9056ms total)
T2A60 3456:585 JLINK_WriteU32(0xE000EDFC, 0x01000000) -- CPU_WriteMem(4 bytes @ 0xE000EDFC)  returns 0x00 (0001ms, 9057ms total)
T2A60 3456:586 JLINK_ReadMem (0xE0001000, 0x0004 Bytes, ...) -- CPU_ReadMem(4 bytes @ 0xE0001000) - Data: 01 00 00 40  returns 0x00 (0000ms, 9057ms total)
T2A60 3456:586 JLINK_WriteU32(0xE0001000, 0x40000001)  returns 0x00 (0001ms, 9058ms total)
T2A60 3456:587 JLINK_WriteU32(0xE0001028, 0x00000100)  returns 0x00 (0000ms, 9058ms total)
T2A60 3456:587 JLINK_ReadMem (0xE0001028, 0x0004 Bytes, ...) -- CPU_WriteMem(4 bytes @ 0xE0001028) -- CPU_ReadMem(4 bytes @ 0xE0001028) - Data: 00 00 00 00  returns 0x00 (0001ms, 9059ms total)
T2A60 3456:588 JLINK_WriteU32(0xE0001024, 0x0000001F)  returns 0x00 (0000ms, 9059ms total)
T2A60 3456:588 JLINK_ReadMem (0xE0001024, 0x0004 Bytes, ...) -- CPU_WriteMem(4 bytes @ 0xE0001024) -- CPU_ReadMem(4 bytes @ 0xE0001024) - Data: 0F 00 00 00  returns 0x00 (0002ms, 9061ms total)
T2A60 3456:590 JLINK_WriteU32(0xE0001038, 0x00000100)  returns 0x00 (0000ms, 9061ms total)
T2A60 3456:590 JLINK_ReadMem (0xE0001038, 0x0004 Bytes, ...) -- CPU_WriteMem(4 bytes @ 0xE0001038) -- CPU_ReadMem(4 bytes @ 0xE0001038) - Data: 00 03 00 00  returns 0x00 (0001ms, 9062ms total)
T2A60 3456:591 JLINK_WriteU32(0xE0001034, 0x0000001F)  returns 0x00 (0000ms, 9062ms total)
T2A60 3456:591 JLINK_ReadMem (0xE0001034, 0x0004 Bytes, ...) -- CPU_WriteMem(4 bytes @ 0xE0001034) -- CPU_ReadMem(4 bytes @ 0xE0001034) - Data: 0F 00 00 00  returns 0x00 (0002ms, 9064ms total)
T2A60 3456:593 JLINK_WriteU32(0xE0001048, 0x00000100)  returns 0x00 (0000ms, 9064ms total)
T2A60 3456:593 JLINK_ReadMem (0xE0001048, 0x0004 Bytes, ...) -- CPU_WriteMem(4 bytes @ 0xE0001048) -- CPU_ReadMem(4 bytes @ 0xE0001048) - Data: 00 00 00 00  returns 0x00 (0001ms, 9065ms total)
T2A60 3456:594 JLINK_WriteU32(0xE0001044, 0x0000001F)  returns 0x00 (0000ms, 9065ms total)
T2A60 3456:595 JLINK_ReadMem (0xE0001044, 0x0004 Bytes, ...) -- CPU_WriteMem(4 bytes @ 0xE0001044) -- CPU_ReadMem(4 bytes @ 0xE0001044) - Data: 0F 00 00 00  returns 0x00 (0001ms, 9066ms total)
T2A60 3456:596 JLINK_WriteU32(0xE0001058, 0x00000100)  returns 0x00 (0000ms, 9066ms total)
T2A60 3456:596 JLINK_ReadMem (0xE0001058, 0x0004 Bytes, ...) -- CPU_WriteMem(4 bytes @ 0xE0001058) -- CPU_ReadMem(4 bytes @ 0xE0001058) - Data: 00 00 00 00  returns 0x00 (0001ms, 9067ms total)
T2A60 3456:597 JLINK_WriteU32(0xE0001054, 0x0000001F)  returns 0x00 (0001ms, 9068ms total)
T2A60 3456:598 JLINK_ReadMem (0xE0001054, 0x0004 Bytes, ...) -- CPU_WriteMem(4 bytes @ 0xE0001054) -- CPU_ReadMem(4 bytes @ 0xE0001054) - Data: 0F 00 00 00  returns 0x00 (0001ms, 9069ms total)
T2A60 3456:599 JLINK_WriteU32(0xE0001020, 0x00000000)  returns 0x00 (0000ms, 9069ms total)
T2A60 3456:599 JLINK_WriteU32(0xE0001024, 0x00000000)  returns 0x00 (0000ms, 9069ms total)
T2A60 3456:599 JLINK_WriteU32(0xE0001028, 0x00000000)  returns 0x00 (0000ms, 9069ms total)
T2A60 3456:599 JLINK_WriteU32(0xE0001030, 0x00000000)  returns 0x00 (0001ms, 9070ms total)
T2A60 3456:600 JLINK_WriteU32(0xE0001034, 0x00000000)  returns 0x00 (0000ms, 9070ms total)
T2A60 3456:600 JLINK_WriteU32(0xE0001038, 0x00000000)  returns 0x00 (0000ms, 9070ms total)
T2A60 3456:600 JLINK_WriteU32(0xE0001040, 0x00000000)  returns 0x00 (0000ms, 9070ms total)
T2A60 3456:600 JLINK_WriteU32(0xE0001044, 0x00000000)  returns 0x00 (0000ms, 9070ms total)
T2A60 3456:600 JLINK_WriteU32(0xE0001048, 0x00000000)  returns 0x00 (0000ms, 9070ms total)
T2A60 3456:600 JLINK_WriteU32(0xE0001050, 0x00000000)  returns 0x00 (0000ms, 9070ms total)
T2A60 3456:601 JLINK_WriteU32(0xE0001054, 0x00000000)  returns 0x00 (0000ms, 9070ms total)
T2A60 3456:601 JLINK_WriteU32(0xE0001058, 0x00000000)  returns 0x00 (0000ms, 9070ms total)
T2A60 3456:601 JLINK_GetBPInfo(BPHandle = 1)  returns 0x00 (0000ms, 9070ms total)
T2A60 3456:601 JLINK_ClrBPEx(BPHandle = 0x00000001)  returns 0x00 (0000ms, 9070ms total)
T2A60 3456:601 JLINK_ReadReg(R15 (PC))  returns 0x00400910 (0000ms, 9070ms total)
T2A60 3456:601 JLINK_Go() -- CPU_WriteMem(4 bytes @ 0xE0001000) -- CPU_ReadMem(4 bytes @ 0xE0001000) -- CPU_WriteMem(4 bytes @ 0xE000ED30) -- CPU_WriteMem(4 bytes @ 0xE0001020) -- CPU_WriteMem(4 bytes @ 0xE0001030) -- CPU_WriteMem(4 bytes @ 0xE0001040) -- CPU_WriteMem(4 bytes @ 0xE0001050) -- CPU_WriteMem(4 bytes @ 0xE0001024) -- CPU_WriteMem(4 bytes @ 0xE0001034) -- CPU_WriteMem(4 bytes @ 0xE0001044) -- CPU_WriteMem(4 bytes @ 0xE0001054) -- CPU_WriteMem(4 bytes @ 0xE0001028)
 -- CPU_WriteMem(4 bytes @ 0xE0001038) -- CPU_WriteMem(4 bytes @ 0xE0001048) -- CPU_WriteMem(4 bytes @ 0xE0001058) -- CPU_WriteMem(4 bytes @ 0xE0002008) (0007ms, 9077ms total)
T1340 3456:608 JLINK_IsHalted()  returns FALSE (0001ms, 9078ms total)
T1340 3456:651 JLINK_IsHalted()  returns FALSE (0000ms, 9078ms total)
T1340 3456:812 JLINK_IsHalted()  returns FALSE (0000ms, 9078ms total)
T1340 3457:013 JLINK_IsHalted()  returns FALSE (0000ms, 9078ms total)
T1340 3457:214 JLINK_IsHalted()  returns FALSE (0000ms, 9078ms total)
T1340 3457:415 JLINK_IsHalted()  returns FALSE (0000ms, 9078ms total)
T1340 3457:617 JLINK_IsHalted()  returns FALSE (0001ms, 9079ms total)
T1340 3457:820 JLINK_IsHalted()  returns FALSE (0000ms, 9078ms total)
T1340 3458:020 JLINK_IsHalted()  returns FALSE (0000ms, 9078ms total)
T1340 3458:221 JLINK_IsHalted()  returns FALSE (0000ms, 9078ms total)
T1340 3458:422 JLINK_IsHalted()  returns FALSE (0000ms, 9078ms total)
T1340 3458:622 JLINK_IsHalted()  returns FALSE (0000ms, 9078ms total)
T1340 3458:823 JLINK_IsHalted()  returns FALSE (0000ms, 9078ms total)
T1340 3459:024 JLINK_IsHalted()  returns FALSE (0001ms, 9079ms total)
T1340 3459:226 JLINK_IsHalted()  returns FALSE (0000ms, 9078ms total)
T1340 3459:427 JLINK_IsHalted()  returns FALSE (0001ms, 9079ms total)
T1340 3459:629 JLINK_IsHalted()  returns FALSE (0000ms, 9079ms total)
T1340 3459:829 JLINK_IsHalted()  returns FALSE (0000ms, 9079ms total)
T1340 3460:030 JLINK_IsHalted()  returns FALSE (0000ms, 9079ms total)
T1340 3460:231 JLINK_IsHalted()  returns FALSE (0000ms, 9079ms total)
T1340 3460:432 JLINK_IsHalted()  returns FALSE (0000ms, 9079ms total)
T1340 3460:634 JLINK_IsHalted()  returns FALSE (0000ms, 9079ms total)
T1340 3460:834 JLINK_IsHalted()  returns FALSE (0001ms, 9080ms total)
